Circuit: * C:\workspace\firewaterburn\simulation\linearize.asc

Direct Newton iteration failed to find .op point.  (Use ".option noopiter" to skip.)
Starting Gmin stepping
Gmin = 10
Gmin = 1.07374
Gmin = 0.115292
Gmin = 0.0123794
Gmin = 0.00132923
Gmin = 0.000142725
Gmin = 1.5325e-005
Gmin = 1.6455e-006
Gmin = 1.76685e-007
Gmin = 1.89714e-008
Gmin = 2.03704e-009
Gmin = 2.18725e-010
Gmin = 2.34854e-011
Gmin = 2.52173e-012
Gmin = 2.70769e-013
Gmin = 0
Gmin stepping succeeded in finding the operating point.

Semiconductor Device Operating Points:
                        --- Diodes ---
Name:    d:u2:8      d:u2:5      d:u2:3      d:u2:16     d:u2:15
Model:  u2:dbia3    u2:dbia3    u2:dbia2    u2:dbia2     u2:din
Id:      1.44e-09    1.81e-09    1.40e-06    1.40e-06   -3.72e-12
Vd:      1.44e+00    1.81e+00    1.44e+00    1.81e+00   -3.72e-01
Req:     1.00e-09    1.00e-09    1.00e-04    1.00e-04    1.00e-11
CAP:     0.00e+00    0.00e+00    0.00e+00    0.00e+00    0.00e+00

Name:    d:u2:14     d:u2:7      d:u2:2      d:u2:1      d:u2:13
Model:  u2:dlimp      u2:dp      u2:desd     u2:desd     u2:desd
Id:     -2.81e-07    1.25e-03   -8.04e-15   -8.04e-15   -2.83e-14
Vd:     -4.15e-01    3.30e+00   -7.31e-01   -7.31e-01   -2.57e+00
Req:     1.00e-05    1.00e-03    1.00e-14    1.00e-14    1.00e-14
CAP:     0.00e+00    0.00e+00    0.00e+00    0.00e+00    0.00e+00

Name:    d:u2:12     d:u2:6      d:u2:11     d:u2:10     d:u2:4
Model:   u2:desd    u2:dlimn    u2:dbia1    u2:dbia1    u2:dbiaz
Id:     -3.23e-14    4.04e-08   -1.44e-07   -1.81e-07    2.20e-04
Vd:     -2.94e+00    2.69e+00   -1.44e+00   -1.81e+00    1.13e+00
Req:     1.00e-14    1.00e-06    1.00e-07    1.00e-07    1.00e-02
CAP:     0.00e+00    0.00e+00    0.00e+00    0.00e+00    0.00e+00

                        --- VDMOSFET Transistors ---
Name:        m:u2:2      m:u2:1
Model:        u2:pi       u2:ni
Id:         -3.29e-12    3.16e-04
Vgs:         4.15e-01    2.69e+00
Vds:        -3.29e+00    6.63e-03
Vth:        -3.00e-01    3.00e-01
Gm:          0.00e+00    1.33e-04
Gds:         0.00e+00    4.76e-02
Cgs:         0.00e+00    0.00e+00
Cgd:         0.00e+00    0.00e+00
Cbody:       0.00e+00    0.00e+00



Date: Tue Oct 19 22:14:38 2021
Total elapsed time: 0.886 seconds.

tnom = 27
temp = 27
method = trap
totiter = 406
traniter = 0
tranpoints = 0
accept = 0
rejected = 0
matrix size = 13
fillins = 9
solver = Normal
Matrix Compiler1: 1.10 KB object code size
Matrix Compiler2: 1.31 KB object code size  0.1/0.1/[0.1]

